Freq.	                 V(out)                    Fase                     BOOOOOODDDDEEEEEEEEE!!!!!!!!!!!!!!!!!!!!!
1.00000000000000e+01	(1.42845341286384e+01dB,1.15740884215592e+02°)
1.02329299228075e+01	(1.41216989396842e+01dB,1.15226535105785e+02°)
1.04712854805090e+01	(1.39574904249161e+01dB,1.14719608962811e+02°)
1.07151930523761e+01	(1.37919485911708e+01dB,1.14220152207722e+02°)
1.09647819614319e+01	(1.36251130744295e+01dB,1.13728201411480e+02°)
1.12201845430196e+01	(1.34570230800127e+01dB,1.13243783658062e+02°)
1.14815362149688e+01	(1.32877173276919e+01dB,1.12766916918541e+02°)
1.17489755493953e+01	(1.31172340016457e+01dB,1.12297610433548e+02°)
1.20226443461741e+01	(1.29456107051625e+01dB,1.11835865101673e+02°)
1.23026877081238e+01	(1.27728844199673e+01dB,1.11381673871524e+02°)
1.25892541179417e+01	(1.25990914700281e+01dB,1.10935022135332e+02°)
1.28824955169313e+01	(1.24242674896842e+01dB,1.10495888122139e+02°)
1.31825673855641e+01	(1.22484473959191e+01dB,1.10064243288802e+02°)
1.34896288259165e+01	(1.20716653645948e+01dB,1.09640052707183e+02°)
1.38038426460288e+01	(1.18939548104504e+01dB,1.09223275446083e+02°)
1.41253754462275e+01	(1.17153483706661e+01dB,1.08813864946632e+02°)
1.44543977074593e+01	(1.15358778917873e+01dB,1.08411769389987e+02°)
1.47910838816821e+01	(1.13555744198014e+01dB,1.08016932056350e+02°)
1.51356124843621e+01	(1.11744681931617e+01dB,1.07629291674470e+02°)
1.54881661891248e+01	(1.09925886385525e+01dB,1.07248782760894e+02°)
1.58489319246111e+01	(1.08099643691933e+01dB,1.06875335948393e+02°)
1.62181009735893e+01	(1.06266231854849e+01dB,1.06508878303070e+02°)
1.65958690743756e+01	(1.04425920778024e+01dB,1.06149333629794e+02°)
1.69824365246174e+01	(1.02578972312521e+01dB,1.05796622765688e+02°)
1.73780082874937e+01	(1.00725640322085e+01dB,1.05450663861485e+02°)
1.77827941003892e+01	(9.88661707646246e+00dB,1.05111372650662e+02°)
1.81970085860998e+01	(9.70008017881307e+00dB,1.04778662706324e+02°)
1.86208713666287e+01	(9.51297638394922e+00dB,1.04452445685877e+02°)
1.90546071796325e+01	(9.32532797847089e+00dB,1.04132631563601e+02°)
1.94984459975804e+01	(9.13715650391150e+00dB,1.03819128851263e+02°)
1.99526231496888e+01	(8.94848277062962e+00dB,1.03511844806975e+02°)
2.04173794466953e+01	(8.75932687244733e+00dB,1.03210685632527e+02°)
2.08929613085404e+01	(8.56970820192056e+00dB,1.02915556659474e+02°)
2.13796208950223e+01	(8.37964546613485e+00dB,1.02626362524256e+02°)
2.18776162394955e+01	(8.18915670292802e+00dB,1.02343007332691e+02°)
2.23872113856834e+01	(7.99825929744857e+00dB,1.02065394814158e+02°)
2.29086765276777e+01	(7.80696999896625e+00dB,1.01793428465839e+02°)
2.34422881531992e+01	(7.61530493785802e+00dB,1.01527011687368e+02°)
2.39883291901949e+01	(7.42327964269965e+00dB,1.01266047906269e+02°)
2.45470891568503e+01	(7.23090905739915e+00dB,1.01010440694543e+02°)
2.51188643150958e+01	(7.03820755831475e+00dB,1.00760093876787e+02°)
2.57039578276886e+01	(6.84518897130547e+00dB,1.00514911630226e+02°)
2.63026799189538e+01	(6.65186658866785e+00dB,1.00274798577012e+02°)
2.69153480392691e+01	(6.45825318591743e+00dB,1.00039659869170e+02°)
2.75422870333816e+01	(6.26436103837829e+00dB,9.98094012665554e+01°)
2.81838293126445e+01	(6.07020193754812e+00dB,9.95839292081628e+01°)
2.88403150312660e+01	(5.87578720721077e+00dB,9.93631508771453e+01°)
2.95120922666638e+01	(5.68112771927150e+00dB,9.91469742598734e+01°)
3.01995172040201e+01	(5.48623390929405e+00dB,9.89353081993641e+01°)
3.09029543251359e+01	(5.29111579172152e+00dB,9.87280624433935e+01°)
3.16227766016838e+01	(5.09578297476629e+00dB,9.85251476876004e+01°)
3.23593656929628e+01	(4.90024467495652e+00dB,9.83264756138737e+01°)
3.31131121482591e+01	(4.70450973132970e+00dB,9.81319589243078e+01°)
3.38844156139202e+01	(4.50858661926545e+00dB,9.79415113709953e+01°)
3.46736850452531e+01	(4.31248346395216e+00dB,9.77550477819189e+01°)
3.54813389233575e+01	(4.11620805348371e+00dB,9.75724840831891e+01°)
3.63078054770101e+01	(3.91976785158431e+00dB,9.73937373178654e+01°)
3.71535229097172e+01	(3.72317000996063e+00dB,9.72187256615875e+01°)
3.80189396320561e+01	(3.52642138028224e+00dB,9.70473684352289e+01°)
3.89045144994280e+01	(3.32952852579204e+00dB,9.68795861147802e+01°)
3.98107170553497e+01	(3.13249773254971e+00dB,9.67153003386526e+01°)
4.07380277804112e+01	(2.93533502031205e+00dB,9.65544339125869e+01°)
4.16869383470335e+01	(2.73804615305480e+00dB,9.63969108123409e+01°)
4.26579518801592e+01	(2.54063664914132e+00dB,9.62426561843191e+01°)
4.36515832240165e+01	(2.34311179114413e+00dB,9.60915963442998e+01°)
4.46683592150962e+01	(2.14547663532557e+00dB,9.59436587744049e+01°)
4.57088189614874e+01	(1.94773602078476e+00dB,9.57987721184514e+01°)
4.67735141287197e+01	(1.74989457827780e+00dB,9.56568661758118e+01°)
4.78630092322638e+01	(1.55195673871893e+00dB,9.55178718939068e+01°)
4.89778819368445e+01	(1.35392674137036e+00dB,9.53817213594444e+01°)
5.01187233627271e+01	(1.15580864172866e+00dB,9.52483477885102e+01°)
5.12861383991364e+01	(9.57606319115839e-01dB,9.51176855156127e+01°)
5.24807460249772e+01	(7.59323483983214e-01dB,9.49896699817748e+01°)
5.37031796370252e+01	(5.60963684936322e-01dB,9.48642377217601e+01°)
5.49540873857623e+01	(3.62530315488988e-01dB,9.47413263505164e+01°)
5.62341325190348e+01	(1.64026620554839e-01dB,9.46208745489131e+01°)
5.75439937337156e+01	(-3.45442973156937e-02dB,9.45028220488420e+01°)
5.88843655355588e+01	(-2.33179471944725e-01dB,9.43871096177509e+01°)
6.02559586074357e+01	(-4.31876067774718e-01dB,9.42736790426690e+01°)
6.16595001861481e+01	(-6.30631374346829e-01dB,9.41624731137831e+01°)
6.30957344480192e+01	(-8.29442801002058e-01dB,9.40534356076172e+01°)
6.45654229034654e+01	(-1.02830787179763e+00dB,9.39465112698655e+01°)
6.60693448007595e+01	(-1.22722422063107e+00dB,9.38416457979228e+01°)
6.76082975391980e+01	(-1.42618958656486e+00dB,9.37387858231573e+01°)
6.91830970918935e+01	(-1.62520180934428e+00dB,9.36378788929615e+01°)
7.07945784384136e+01	(-1.82425882510179e+00dB,9.35388734526204e+01°)
7.24435960074988e+01	(-2.02335866224084e+00dB,9.34417188270268e+01°)
7.41310241300916e+01	(-2.22249943749289e+00dB,9.33463652022767e+01°)
7.58577575029182e+01	(-2.42167935214087e+00dB,9.32527636071710e+01°)
7.76247116628690e+01	(-2.62089668840317e+00dB,9.31608658946498e+01°)
7.94328234724279e+01	(-2.82014980597185e+00dB,9.30706247231814e+01°)
8.12830516164097e+01	(-3.01943713869944e+00dB,9.29819935381292e+01°)
8.31763771102669e+01	(-3.21875719142861e+00dB,9.28949265531128e+01°)
8.51138038202374e+01	(-3.41810853695912e+00dB,9.28093787313836e+01°)
8.70963589956078e+01	(-3.61748981314693e+00dB,9.27253057672282e+01°)
8.91250938133743e+01	(-3.81689972013026e+00dB,9.26426640674155e+01°)
9.12010839355907e+01	(-4.01633701767769e+00dB,9.25614107326984e+01°)
9.33254300796988e+01	(-4.21580052265360e+00dB,9.24815035393830e+01°)
9.54992586021433e+01	(-4.41528910659624e+00dB,9.24029009209740e+01°)
9.77237220955808e+01	(-4.61480169340418e+00dB,9.23255619499049e+01°)
9.99999999999997e+01	(-4.81433725712681e+00dB,9.22494463193622e+01°)
1.02329299228075e+02	(-5.01389481985479e+00dB,9.21745143252078e+01°)
1.04712854805090e+02	(-5.21347344970665e+00dB,9.21007268480071e+01°)
1.07151930523760e+02	(-5.41307225890754e+00dB,9.20280453351665e+01°)
1.09647819614318e+02	(-5.61269040195691e+00dB,9.19564317831844e+01°)
1.12201845430196e+02	(-5.81232707388112e+00dB,9.18858487200183e+01°)
1.14815362149688e+02	(-6.01198150856827e+00dB,9.18162591875711e+01°)
1.17489755493953e+02	(-6.21165297718147e+00dB,9.17476267242976e+01°)
1.20226443461741e+02	(-6.41134078664800e+00dB,9.16799153479322e+01°)
1.23026877081238e+02	(-6.61104427822116e+00dB,9.16130895383389e+01°)
1.25892541179416e+02	(-6.81076282611207e+00dB,9.15471142204821e+01°)
1.28824955169313e+02	(-7.01049583618892e+00dB,9.14819547475194e+01°)
1.31825673855640e+02	(-7.21024274474086e+00dB,9.14175768840138e+01°)
1.34896288259165e+02	(-7.41000301730442e+00dB,9.13539467892642e+01°)
1.38038426460288e+02	(-7.60977614754990e+00dB,9.12910310007532e+01°)
1.41253754462275e+02	(-7.80956165622563e+00dB,9.12287964177082e+01°)
1.44543977074592e+02	(-8.00935909015815e+00dB,9.11672102847748e+01°)
1.47910838816820e+02	(-8.20916802130604e+00dB,9.11062401757989e+01°)
1.51356124843620e+02	(-8.40898804586576e+00dB,9.10458539777140e+01°)
1.54881661891248e+02	(-8.60881878342770e+00dB,9.09860198745309e+01°)
1.58489319246111e+02	(-8.80865987618054e+00dB,9.09267063314256e+01°)
1.62181009735892e+02	(-9.00851098816269e+00dB,9.08678820789214e+01°)
1.65958690743755e+02	(-9.20837180455891e+00dB,9.08095160971618e+01°)
1.69824365246174e+02	(-9.40824203104098e+00dB,9.07515776002691e+01°)
1.73780082874937e+02	(-9.60812139315107e+00dB,9.06940360207840e+01°)
1.77827941003892e+02	(-9.80800963572633e+00dB,9.06368609941829e+01°)
1.81970085860998e+02	(-1.00079065223639e+01dB,9.05800223434662e+01°)
1.86208713666286e+02	(-1.02078118349248e+01dB,9.05234900638150e+01°)
1.90546071796324e+02	(-1.04077253730765e+01dB,9.04672343073082e+01°)
1.94984459975804e+02	(-1.06076469538717e+01dB,9.04112253676982e+01°)
1.99526231496887e+02	(-1.08075764113648e+01dB,9.03554336652369e+01°)
2.04173794466952e+02	(-1.10075135962627e+01dB,9.02998297315493e+01°)
2.08929613085403e+02	(-1.12074583756112e+01dB,9.02443841945468e+01°)
2.13796208950222e+02	(-1.14074106325153e+01dB,9.01890677633772e+01°)
2.18776162394954e+02	(-1.16073702658934e+01dB,9.01338512134042e+01°)
2.23872113856833e+02	(-1.18073371902644e+01dB,9.00787053712114e+01°)
2.29086765276776e+02	(-1.20073113355674e+01dB,9.00236010996253e+01°)
2.34422881531991e+02	(-1.22072926470144e+01dB,8.99685092827515e+01°)
2.39883291901948e+02	(-1.24072810849738e+01dB,8.99134008110188e+01°)
2.45470891568502e+02	(-1.26072766248874e+01dB,8.98582465662253e+01°)
2.51188643150957e+02	(-1.28072792572169e+01dB,8.98030174065802e+01°)
2.57039578276885e+02	(-1.30072889874239e+01dB,8.97476841517374e+01°)
2.63026799189537e+02	(-1.32073058359801e+01dB,8.96922175678137e+01°)
2.69153480392690e+02	(-1.34073298384093e+01dB,8.96365883523859e+01°)
2.75422870333816e+02	(-1.36073610453609e+01dB,8.95807671194627e+01°)
2.81838293126444e+02	(-1.38073995227154e+01dB,8.95247243844245e+01°)
2.88403150312659e+02	(-1.40074453517209e+01dB,8.94684305489258e+01°)
2.95120922666637e+02	(-1.42074986291629e+01dB,8.94118558857551e+01°)
3.01995172040200e+02	(-1.44075594675659e+01dB,8.93549705236470e+01°)
3.09029543251358e+02	(-1.46076279954278e+01dB,8.92977444320403e+01°)
3.16227766016837e+02	(-1.48077043574877e+01dB,8.92401474057782e+01°)
3.23593656929627e+02	(-1.50077887150281e+01dB,8.91821490497434e+01°)
3.31131121482590e+02	(-1.52078812462108e+01dB,8.91237187634259e+01°)
3.38844156139201e+02	(-1.54079821464485e+01dB,8.90648257254156e+01°)
3.46736850452530e+02	(-1.56080916288119e+01dB,8.90054388778167e+01°)
3.54813389233574e+02	(-1.58082099244734e+01dB,8.89455269105790e+01°)
3.63078054770100e+02	(-1.60083372831891e+01dB,8.88850582457406e+01°)
3.71535229097171e+02	(-1.62084739738181e+01dB,8.88240010215787e+01°)
3.80189396320559e+02	(-1.64086202848823e+01dB,8.87623230766640e+01°)
3.89045144994279e+02	(-1.66087765251662e+01dB,8.86999919338138e+01°)
3.98107170553495e+02	(-1.68089430243589e+01dB,8.86369747839423e+01°)
4.07380277804111e+02	(-1.70091201337384e+01dB,8.85732384698010e+01°)
4.16869383470333e+02	(-1.72093082269014e+01dB,8.85087494696103e+01°)
4.26579518801591e+02	(-1.74095077005379e+01dB,8.84434738805749e+01°)
4.36515832240164e+02	(-1.76097189752532e+01dB,8.83773774022835e+01°)
4.46683592150961e+02	(-1.78099424964390e+01dB,8.83104253199896e+01°)
4.57088189614873e+02	(-1.80101787351952e+01dB,8.82425824877697e+01°)
4.67735141287196e+02	(-1.82104281893033e+01dB,8.81738133115606e+01°)
4.78630092322636e+02	(-1.84106913842543e+01dB,8.81040817320708e+01°)
4.89778819368444e+02	(-1.86109688743330e+01dB,8.80333512075688e+01°)
5.01187233627270e+02	(-1.88112612437598e+01dB,8.79615846965449e+01°)
5.12861383991362e+02	(-1.90115691078930e+01dB,8.78887446402499e+01°)
5.24807460249770e+02	(-1.92118931144940e+01dB,8.78147929451080e+01°)
5.37031796370250e+02	(-1.94122339450563e+01dB,8.77396909650093e+01°)
5.49540873857622e+02	(-1.96125923162030e+01dB,8.76633994834805e+01°)
5.62341325190346e+02	(-1.98129689811534e+01dB,8.75858786957390e+01°)
5.75439937337154e+02	(-2.00133647312620e+01dB,8.75070881906328e+01°)
5.88843655355586e+02	(-2.02137803976337e+01dB,8.74269869324712e+01°)
6.02559586074355e+02	(-2.04142168528159e+01dB,8.73455332427519e+01°)
6.16595001861479e+02	(-2.06146750125730e+01dB,8.72626847817896e+01°)
6.30957344480190e+02	(-2.08151558377443e+01dB,8.71783985302551e+01°)
6.45654229034652e+02	(-2.10156603361897e+01dB,8.70926307706316e+01°)
6.60693448007592e+02	(-2.12161895648269e+01dB,8.70053370686000e+01°)
6.76082975391978e+02	(-2.14167446317623e+01dB,8.69164722543615e+01°)
6.91830970918933e+02	(-2.16173266985198e+01dB,8.68259904039121e+01°)
7.07945784384134e+02	(-2.18179369823722e+01dB,8.67338448202817e+01°)
7.24435960074986e+02	(-2.20185767587773e+01dB,8.66399880147526e+01°)
7.41310241300914e+02	(-2.22192473639238e+01dB,8.65443716880758e+01°)
7.58577575029180e+02	(-2.24199501973912e+01dB,8.64469467117027e+01°)
7.76247116628688e+02	(-2.26206867249269e+01dB,8.63476631090534e+01°)
7.94328234724277e+02	(-2.28214584813463e+01dB,8.62464700368447e+01°)
8.12830516164095e+02	(-2.30222670735581e+01dB,8.61433157665016e+01°)
8.31763771102666e+02	(-2.32231141837225e+01dB,8.60381476656817e+01°)
8.51138038202372e+02	(-2.34240015725438e+01dB,8.59309121799396e+01°)
8.70963589956076e+02	(-2.36249310827041e+01dB,8.58215548145667e+01°)
8.91250938133741e+02	(-2.38259046424423e+01dB,8.57100201166388e+01°)
9.12010839355905e+02	(-2.40269242692833e+01dB,8.55962516573130e+01°)
9.33254300796986e+02	(-2.42279920739221e+01dB,8.54801920144124e+01°)
9.54992586021431e+02	(-2.44291102642694e+01dB,8.53617827553456e+01°)
9.77237220955805e+02	(-2.46302811496608e+01dB,8.52409644204092e+01°)
9.99999999999994e+02	(-2.48315071452381e+01dB,8.51176765065254e+01°)
1.02329299228075e+03	(-2.50327907765052e+01dB,8.49918574514717e+01°)
1.04712854805089e+03	(-2.52341346840655e+01dB,8.48634446186634e+01°)
1.07151930523760e+03	(-2.54355416285444e+01dB,8.47323742825547e+01°)
1.09647819614318e+03	(-2.56370144957036e+01dB,8.45985816147285e+01°)
1.12201845430196e+03	(-2.58385563017504e+01dB,8.44620006707507e+01°)
1.14815362149688e+03	(-2.60401701988484e+01dB,8.43225643778703e+01°)
1.17489755493952e+03	(-2.62418594808330e+01dB,8.41802045236513e+01°)
1.20226443461741e+03	(-2.64436275891376e+01dB,8.40348517456295e+01°)
1.23026877081237e+03	(-2.66454781189329e+01dB,8.38864355220945e+01°)
1.25892541179416e+03	(-2.68474148254855e+01dB,8.37348841641008e+01°)
1.28824955169313e+03	(-2.70494416307369e+01dB,8.35801248088223e+01°)
1.31825673855640e+03	(-2.72515626301094e+01dB,8.34220834143706e+01°)
1.34896288259165e+03	(-2.74537820995378e+01dB,8.32606847562039e+01°)
1.38038426460288e+03	(-2.76561045027324e+01dB,8.30958524252645e+01°)
1.41253754462275e+03	(-2.78585344986734e+01dB,8.29275088279873e+01°)
1.44543977074592e+03	(-2.80610769493379e+01dB,8.27555751883349e+01°)
1.47910838816820e+03	(-2.82637369276593e+01dB,8.25799715520202e+01°)
1.51356124843620e+03	(-2.84665197257190e+01dB,8.24006167930889e+01°)
1.54881661891247e+03	(-2.86694308631686e+01dB,8.22174286230445e+01°)
1.58489319246110e+03	(-2.88724760958784e+01dB,8.20303236027063e+01°)
1.62181009735892e+03	(-2.90756614248100e+01dB,8.18392171570052e+01°)
1.65958690743755e+03	(-2.92789931051063e+01dB,8.16440235929273e+01°)
1.69824365246173e+03	(-2.94824776553912e+01dB,8.14446561208328e+01°)
1.73780082874936e+03	(-2.96861218672720e+01dB,8.12410268793832e+01°)
1.77827941003891e+03	(-2.98899328150322e+01dB,8.10330469643243e+01°)
1.81970085860997e+03	(-3.00939178655019e+01dB,8.08206264613845e+01°)
1.86208713666286e+03	(-3.02980846880926e+01dB,8.06036744835559e+01°)
1.90546071796323e+03	(-3.05024412649760e+01dB,8.03820992130422e+01°)
1.94984459975803e+03	(-3.07069959013887e+01dB,8.01558079481639e+01°)
1.99526231496887e+03	(-3.09117572360391e+01dB,7.99247071555275e+01°)
2.04173794466952e+03	(-3.11167342515896e+01dB,7.96887025277722e+01°)
2.08929613085403e+03	(-3.13219362851834e+01dB,7.94476990472208e+01°)
2.13796208950222e+03	(-3.15273730389850e+01dB,7.92016010557704e+01°)
2.18776162394954e+03	(-3.17330545906932e+01dB,7.89503123313699e+01°)
2.23872113856832e+03	(-3.19389914039871e+01dB,7.86937361714363e+01°)
2.29086765276776e+03	(-3.21451943388566e+01dB,7.84317754835729e+01°)
2.34422881531991e+03	(-3.23516746617674e+01dB,7.81643328839578e+01°)
2.39883291901947e+03	(-3.25584440556013e+01dB,7.78913108037740e+01°)
2.45470891568501e+03	(-3.27655146293110e+01dB,7.76126116040594e+01°)
2.51188643150956e+03	(-3.29728989272193e+01dB,7.73281376993529e+01°)
2.57039578276885e+03	(-3.31806099378889e+01dB,7.70377916905131e+01°)
2.63026799189536e+03	(-3.33886611024795e+01dB,7.67414765070836e+01°)
2.69153480392690e+03	(-3.35970663225042e+01dB,7.64390955595704e+01°)
2.75422870333815e+03	(-3.38058399668905e+01dB,7.61305529019892e+01°)
2.81838293126443e+03	(-3.40149968782388e+01dB,7.58157534050261e+01°)
2.88403150312658e+03	(-3.42245523781706e+01dB,7.54946029401380e+01°)
2.95120922666636e+03	(-3.44345222716438e+01dB,7.51670085748990e+01°)
3.01995172040199e+03	(-3.46449228501087e+01dB,7.48328787798702e+01°)
3.09029543251357e+03	(-3.48557708933667e+01dB,7.44921236472405e+01°)
3.16227766016836e+03	(-3.50670836699882e+01dB,7.41446551214488e+01°)
3.23593656929626e+03	(-3.52788789361339e+01dB,7.37903872419533e+01°)
3.31131121482589e+03	(-3.54911749326178e+01dB,7.34292363982654e+01°)
3.38844156139200e+03	(-3.57039903800418e+01dB,7.30611215973073e+01°)
3.46736850452529e+03	(-3.59173444718204e+01dB,7.26859647430900e+01°)
3.54813389233573e+03	(-3.61312568649103e+01dB,7.23036909286343e+01°)
3.63078054770099e+03	(-3.63457476680486e+01dB,7.19142287399800e+01°)
3.71535229097170e+03	(-3.65608374272989e+01dB,7.15175105720388e+01°)
3.80189396320558e+03	(-3.67765471086974e+01dB,7.11134729559493e+01°)
3.89045144994278e+03	(-3.69928980777845e+01dB,7.07020568974895e+01°)
3.98107170553494e+03	(-3.72099120758078e+01dB,7.02832082259865e+01°)
4.07380277804110e+03	(-3.74276111923726e+01dB,6.98568779530399e+01°)
4.16869383470332e+03	(-3.76460178343223e+01dB,6.94230226402482e+01°)
4.26579518801589e+03	(-3.78651546906254e+01dB,6.89816047749850e+01°)
4.36515832240162e+03	(-3.80850446930513e+01dB,6.85325931531284e+01°)
4.46683592150960e+03	(-3.83057109724206e+01dB,6.80759632674936e+01°)
4.57088189614871e+03	(-3.85271768102233e+01dB,6.76116977005598e+01°)
4.67735141287194e+03	(-3.87494655854057e+01dB,6.71397865199213e+01°)
4.78630092322634e+03	(-3.89726007161425e+01dB,6.66602276747242e+01°)
4.89778819368442e+03	(-3.91966055964222e+01dB,6.61730273911850e+01°)
5.01187233627268e+03	(-3.94215035272949e+01dB,6.56782005651182e+01°)
5.12861383991361e+03	(-3.96473176426542e+01dB,6.51757711492360e+01°)
5.24807460249768e+03	(-3.98740708294475e+01dB,6.46657725328216e+01°)
5.37031796370248e+03	(-4.01017856422415e+01dB,6.41482479112271e+01°)
5.49540873857620e+03	(-4.03304842121014e+01dB,6.36232506425004e+01°)
5.62341325190344e+03	(-4.05601881497781e+01dB,6.30908445883192e+01°)
5.75439937337152e+03	(-4.07909184432407e+01dB,6.25511044362944e+01°)
5.88843655355584e+03	(-4.10226953496333e+01dB,6.20041160006105e+01°)
6.02559586074353e+03	(-4.12555382817851e+01dB,6.14499764979014e+01°)
6.16595001861477e+03	(-4.14894656894514e+01dB,6.08887947952113e+01°)
6.30957344480188e+03	(-4.17244949355190e+01dB,6.03206916268770e+01°)
6.45654229034650e+03	(-4.19606421674653e+01dB,5.97457997771823e+01°)
6.60693448007590e+03	(-4.21979221844185e+01dB,5.91642642256871e+01°)
6.76082975391976e+03	(-4.24363483002260e+01dB,5.85762422522234e+01°)
6.91830970918931e+03	(-4.26759322030022e+01dB,5.79819034986803e+01°)
